
T32A8 000:280 SEGGER J-Link V4.98e Log File (0000ms, 0266ms total)
T32A8 000:280 DLL Compiled: May  5 2015 11:00:52 (0000ms, 0266ms total)
T32A8 000:280 Logging started @ 2022-08-25 11:06 (0000ms, 0266ms total)
T32A8 000:280 JLINK_SetWarnOutHandler(...) (0000ms, 0266ms total)
T32A8 000:280 JLINK_OpenEx(...)
Firmware: J-Link V9 compiled Oct 25 2018 11:46:07
Hardware: V9.30
S/N: 36310083
Feature(s): RDI, GDB, FlashDL, FlashBP, JFlash  returns O.K. (0264ms, 0530ms total)
T32A8 000:544 JLINK_SetErrorOutHandler(...) (0000ms, 0530ms total)
T32A8 000:544 JLINK_ExecCommand("ProjectFile = "E:\project_source\J_MCU\ORC2213B_CJ1_MCU\STM32F107_ETH_LwIP_V1.0.0\Project\RVMDK\JLinkSettings.ini"", ...)  returns 0x00 (0000ms, 0530ms total)
T32A8 000:551 JLINK_ExecCommand("Device = STM32F107VC", ...)Device "STM32F107VC" selected.  returns 0x00 (0005ms, 0535ms total)
T32A8 000:556 JLINK_ExecCommand("DisableConnectionTimeout", ...)  returns 0x01 (0000ms, 0535ms total)
T32A8 000:556 JLINK_GetHardwareVersion()  returns 0x16B48 (0000ms, 0535ms total)
T32A8 000:556 JLINK_GetDLLVersion()  returns 49805 (0000ms, 0535ms total)
T32A8 000:556 JLINK_GetFirmwareString(...) (0000ms, 0535ms total)
T32A8 000:563 JLINK_GetDLLVersion()  returns 49805 (0000ms, 0535ms total)
T32A8 000:563 JLINK_GetCompileDateTime() (0000ms, 0535ms total)
T32A8 000:564 JLINK_GetFirmwareString(...) (0000ms, 0535ms total)
T32A8 000:566 JLINK_GetHardwareVersion()  returns 0x16B48 (0000ms, 0535ms total)
T32A8 000:572 JLINK_TIF_Select(JLINKARM_TIF_SWD)  returns 0x00 (0001ms, 0536ms total)
T32A8 000:573 JLINK_SetSpeed(5000) (0000ms, 0536ms total)
T32A8 000:573 JLINK_GetId() >0x108 TIF>Found SWD-DP with ID 0x1BA01477 >0x0D TIF> >0x28 TIF> >0x0D TIF> >0x28 TIF> >0x0D TIF> >0x21 TIF> >0x0D TIF> >0x28 TIF> >0x0D TIF> >0x28 TIF> >0x0D TIF> >0x28 TIF> >0x0D TIF> >0x21 TIF> >0x0D TIF> >0x21 TIF> >0x0D TIF> >0x28 TIF> >0x0D TIF> >0x21 TIF> >0x0D TIF> >0x21 TIF> >0x108 TIF>Found SWD-DP with ID 0x1BA01477 >0x0D TIF> >0x21 TIF> >0x0D TIF> >0x28 TIF> >0x0D TIF> >0x28 TIF> >0x0D TIF> >0x21 TIF> >0x0D TIF> >0x28 TIF> >0x0D TIF> >0x21 TIF> >0x0D TIF> >0x21 TIF>
 >0x0D TIF> >0x21 TIF> >0x0D TIF> >0x21 TIF> >0x0D TIF> >0x28 TIF> >0x0D TIF> >0x28 TIF> >0x0D TIF> >0x21 TIF> >0x0D TIF> >0x28 TIF> >0x0D TIF> >0x28 TIF> >0x0D TIF> >0x28 TIF> >0x0D TIF> >0x21 TIF> >0x0D TIF> >0x21 TIF> >0x0D TIF> >0x28 TIF> >0x0D TIF> >0x21 TIF> >0x0D TIF> >0x21 TIF>Found Cortex-M3 r1p1, Little endian. -- CPU_WriteMem(4 bytes @ 0xE0002000) -- CPU_ReadMem(4 bytes @ 0xE000EDF0) -- CPU_ReadMem(4 bytes @ 0xE0002000)FPUnit: 6 code (BP) slots and 2 literal slots
 -- CPU_ReadMem(4 bytes @ 0xE000EDFC) -- CPU_ReadMem(4 bytes @ 0xE0001000) -- CPU_WriteMem(4 bytes @ 0xE0001000) -- CPU_ReadMem(4 bytes @ 0xE000ED88) -- CPU_WriteMem(4 bytes @ 0xE000ED88) -- CPU_ReadMem(4 bytes @ 0xE000ED88) -- CPU_WriteMem(4 bytes @ 0xE000ED88)CoreSight components:ROMTbl 0 @ E00FF000 -- CPU_ReadMem(16 bytes @ 0xE00FF000) -- CPU_ReadMem(16 bytes @ 0xE000EFF0) -- CPU_ReadMem(16 bytes @ 0xE000EFE0)ROMTbl 0 [0]: FFF0F000, CID: B105E00D, PID: 001BB000 SCS
 -- CPU_ReadMem(16 bytes @ 0xE0001FF0) -- CPU_ReadMem(16 bytes @ 0xE0001FE0)ROMTbl 0 [1]: FFF02000, CID: B105E00D, PID: 001BB002 DWT -- CPU_ReadMem(16 bytes @ 0xE0002FF0) -- CPU_ReadMem(16 bytes @ 0xE0002FE0)ROMTbl 0 [2]: FFF03000, CID: B105E00D, PID: 000BB003 FPB -- CPU_ReadMem(16 bytes @ 0xE0000FF0) -- CPU_ReadMem(16 bytes @ 0xE0000FE0)ROMTbl 0 [3]: FFF01000, CID: B105E00D, PID: 001BB001 ITM -- CPU_ReadMem(16 bytes @ 0xE00FF010) -- CPU_ReadMem(16 bytes @ 0xE0040FF0)
 -- CPU_ReadMem(16 bytes @ 0xE0040FE0)ROMTbl 0 [4]: FFF41000, CID: B105900D, PID: 001BB923 TPIU-Lite -- CPU_ReadMem(16 bytes @ 0xE0041FF0) -- CPU_ReadMem(16 bytes @ 0xE0041FE0)ROMTbl 0 [5]: FFF42000, CID: B105900D, PID: 101BB924 ETM-M3 >0x0D TIF> >0x21 TIF>  returns 0x1BA01477 (0031ms, 0567ms total)
T32A8 000:604 JLINK_GetDLLVersion()  returns 49805 (0000ms, 0567ms total)
T32A8 000:604 JLINK_CORE_GetFound()  returns 0x30000FF (0000ms, 0567ms total)
T32A8 000:604 JLINK_GetDebugInfo(0x100) -- Value=0xE00FF003  returns 0x00 (0000ms, 0567ms total)
T32A8 000:605 JLINK_ReadMem (0xE00FF000, 0x0020 Bytes, ...) -- CPU is running -- CPU_ReadMem(32 bytes @ 0xE00FF000) - Data: 03 F0 F0 FF 03 20 F0 FF 03 30 F0 FF 03 10 F0 FF ...  returns 0x00 (0000ms, 0567ms total)
T32A8 000:605 JLINK_ReadMem (0xE000EFF0, 0x0010 Bytes, ...) -- CPU is running -- CPU_ReadMem(16 bytes @ 0xE000EFF0) - Data: 0D 00 00 00 E0 00 00 00 05 00 00 00 B1 00 00 00  returns 0x00 (0001ms, 0568ms total)
T32A8 000:606 JLINK_ReadMem (0xE000EFD0, 0x0020 Bytes, ...) -- CPU is running -- CPU_ReadMem(32 bytes @ 0xE000EFD0) - Data: 04 00 00 00 00 00 00 00 00 00 00 00 00 00 00 00 ...  returns 0x00 (0000ms, 0568ms total)
T32A8 000:606 JLINK_ReadMem (0xE0001FF0, 0x0010 Bytes, ...) -- CPU is running -- CPU_ReadMem(16 bytes @ 0xE0001FF0) - Data: 0D 00 00 00 E0 00 00 00 05 00 00 00 B1 00 00 00  returns 0x00 (0000ms, 0568ms total)
T32A8 000:606 JLINK_ReadMem (0xE0001FD0, 0x0020 Bytes, ...) -- CPU is running -- CPU_ReadMem(32 bytes @ 0xE0001FD0) - Data: 04 00 00 00 00 00 00 00 00 00 00 00 00 00 00 00 ...  returns 0x00 (0001ms, 0569ms total)
T32A8 000:607 JLINK_ReadMem (0xE0002FF0, 0x0010 Bytes, ...) -- CPU is running -- CPU_ReadMem(16 bytes @ 0xE0002FF0) - Data: 0D 00 00 00 E0 00 00 00 05 00 00 00 B1 00 00 00  returns 0x00 (0000ms, 0569ms total)
T32A8 000:607 JLINK_ReadMem (0xE0002FD0, 0x0020 Bytes, ...) -- CPU is running -- CPU_ReadMem(32 bytes @ 0xE0002FD0) - Data: 04 00 00 00 00 00 00 00 00 00 00 00 00 00 00 00 ...  returns 0x00 (0000ms, 0569ms total)
T32A8 000:607 JLINK_ReadMem (0xE0000FF0, 0x0010 Bytes, ...) -- CPU is running -- CPU_ReadMem(16 bytes @ 0xE0000FF0) - Data: 0D 00 00 00 E0 00 00 00 05 00 00 00 B1 00 00 00  returns 0x00 (0000ms, 0569ms total)
T32A8 000:607 JLINK_ReadMem (0xE0000FD0, 0x0020 Bytes, ...) -- CPU is running -- CPU_ReadMem(32 bytes @ 0xE0000FD0) - Data: 04 00 00 00 00 00 00 00 00 00 00 00 00 00 00 00 ...  returns 0x00 (0001ms, 0570ms total)
T32A8 000:608 JLINK_ReadMem (0xE0040FF0, 0x0010 Bytes, ...) -- CPU is running -- CPU_ReadMem(16 bytes @ 0xE0040FF0) - Data: 0D 00 00 00 90 00 00 00 05 00 00 00 B1 00 00 00  returns 0x00 (0000ms, 0570ms total)
T32A8 000:608 JLINK_ReadMem (0xE0040FD0, 0x0020 Bytes, ...) -- CPU is running -- CPU_ReadMem(32 bytes @ 0xE0040FD0) - Data: 04 00 00 00 00 00 00 00 00 00 00 00 00 00 00 00 ...  returns 0x00 (0000ms, 0570ms total)
T32A8 000:608 JLINK_ReadMem (0xE0041FF0, 0x0010 Bytes, ...) -- CPU is running -- CPU_ReadMem(16 bytes @ 0xE0041FF0) - Data: 0D 00 00 00 90 00 00 00 05 00 00 00 B1 00 00 00  returns 0x00 (0001ms, 0571ms total)
T32A8 000:609 JLINK_ReadMem (0xE0041FD0, 0x0020 Bytes, ...) -- CPU is running -- CPU_ReadMem(32 bytes @ 0xE0041FD0) - Data: 04 00 00 00 00 00 00 00 00 00 00 00 00 00 00 00 ...  returns 0x00 (0000ms, 0571ms total)
T32A8 000:609 JLINK_ReadMemU32(0xE000ED00, 0x0001 Items, ...) -- CPU is running -- CPU_ReadMem(4 bytes @ 0xE000ED00) - Data: 31 C2 1F 41  returns 0x01 (0000ms, 0571ms total)
T32A8 000:609 JLINK_SetResetType(JLINKARM_RESET_TYPE_NORMAL)  returns JLINKARM_RESET_TYPE_NORMAL (0000ms, 0571ms total)
T32A8 000:609 JLINK_Reset() -- CPU is running -- CPU_WriteMem(4 bytes @ 0xE000EDF0) -- CPU is running -- CPU_WriteMem(4 bytes @ 0xE000EDFC) >0x35 TIF> -- CPU is running -- CPU_WriteMem(4 bytes @ 0xE000ED0C) -- CPU is running -- CPU_ReadMem(4 bytes @ 0xE000EDF0) -- CPU is running -- CPU_ReadMem(4 bytes @ 0xE000EDF0) -- CPU is running -- CPU_WriteMem(4 bytes @ 0xE000EDF0) -- CPU is running -- CPU_WriteMem(4 bytes @ 0xE000EDFC) -- CPU is running -- CPU_ReadMem(4 bytes @ 0xE000EDF0)
 -- CPU_WriteMem(4 bytes @ 0xE0002000) -- CPU_ReadMem(4 bytes @ 0xE000EDFC) -- CPU_ReadMem(4 bytes @ 0xE0001000) (0014ms, 0585ms total)
T32A8 000:623 JLINK_Halt()  returns 0x00 (0000ms, 0585ms total)
T32A8 000:623 JLINK_IsHalted()  returns TRUE (0000ms, 0585ms total)
T32A8 000:623 JLINK_ReadMemU32(0xE000EDF0, 0x0001 Items, ...) -- CPU_ReadMem(4 bytes @ 0xE000EDF0) - Data: 03 00 03 00  returns 0x01 (0000ms, 0585ms total)
T32A8 000:623 JLINK_WriteU32(0xE000EDF0, 0xA05F0003) -- CPU_WriteMem(4 bytes @ 0xE000EDF0)  returns 0x00 (0000ms, 0585ms total)
T32A8 000:623 JLINK_WriteU32(0xE000EDFC, 0x01000000) -- CPU_WriteMem(4 bytes @ 0xE000EDFC)  returns 0x00 (0001ms, 0586ms total)
T32A8 000:629 JLINK_GetHWStatus(...)  returns 0x00 (0001ms, 0587ms total)
T32A8 000:633 JLINK_GetNumBPUnits(Type = 0xFFFFFF00)  returns 0x06 (0000ms, 0587ms total)
T32A8 000:633 JLINK_GetNumBPUnits(Type = 0xF0)  returns 0x2000 (0000ms, 0587ms total)
T32A8 000:633 JLINK_GetNumWPUnits()  returns 0x04 (0000ms, 0587ms total)
T32A8 000:637 JLINK_GetSpeed()  returns 0xFA0 (0000ms, 0587ms total)
T32A8 000:640 JLINK_ReadMemU32(0xE000E004, 0x0001 Items, ...) -- CPU_ReadMem(4 bytes @ 0xE000E004) - Data: 02 00 00 00  returns 0x01 (0001ms, 0588ms total)
T32A8 000:641 JLINK_ReadMemU32(0xE000E004, 0x0001 Items, ...) -- CPU_ReadMem(4 bytes @ 0xE000E004) - Data: 02 00 00 00  returns 0x01 (0000ms, 0588ms total)
T32A8 000:641 JLINK_WriteMem(0xE0001000, 0x001C Bytes, ...) - Data: 01 00 00 00 00 00 00 00 00 00 00 00 00 00 00 00 ... -- CPU_WriteMem(28 bytes @ 0xE0001000)  returns 0x1C (0001ms, 0589ms total)
T32A8 000:642 JLINK_ReadMem (0xE0001000, 0x001C Bytes, ...) -- CPU_ReadMem(28 bytes @ 0xE0001000) - Data: 01 00 00 40 00 00 00 00 00 00 00 00 00 00 00 00 ...  returns 0x00 (0000ms, 0589ms total)
T32A8 000:642 JLINK_Halt()  returns 0x00 (0000ms, 0589ms total)
T32A8 000:642 JLINK_IsHalted()  returns TRUE (0000ms, 0589ms total)
T32A8 000:643 JLINK_WriteMem(0x20000000, 0x0164 Bytes, ...) - Data: 00 BE 0A E0 0D 78 2D 06 68 40 08 24 40 00 00 D3 ... -- CPU_WriteMem(356 bytes @ 0x20000000)  returns 0x164 (0003ms, 0592ms total)
T32A8 000:646 JLINK_WriteReg(R0, 0x08000000)  returns 0x00 (0000ms, 0592ms total)
T32A8 000:646 JLINK_WriteReg(R1, 0x017D7840)  returns 0x00 (0000ms, 0592ms total)
T32A8 000:646 JLINK_WriteReg(R2, 0x00000001)  returns 0x00 (0000ms, 0592ms total)
T32A8 000:646 JLINK_WriteReg(R3, 0x00000000)  returns 0x00 (0000ms, 0592ms total)
T32A8 000:646 JLINK_WriteReg(R4, 0x00000000)  returns 0x00 (0000ms, 0592ms total)
T32A8 000:646 JLINK_WriteReg(R5, 0x00000000)  returns 0x00 (0000ms, 0592ms total)
T32A8 000:646 JLINK_WriteReg(R6, 0x00000000)  returns 0x00 (0000ms, 0592ms total)
T32A8 000:646 JLINK_WriteReg(R7, 0x00000000)  returns 0x00 (0000ms, 0592ms total)
T32A8 000:646 JLINK_WriteReg(R8, 0x00000000)  returns 0x00 (0000ms, 0592ms total)
T32A8 000:646 JLINK_WriteReg(R9, 0x20000160)  returns 0x00 (0000ms, 0592ms total)
T32A8 000:646 JLINK_WriteReg(R10, 0x00000000)  returns 0x00 (0000ms, 0592ms total)
T32A8 000:646 JLINK_WriteReg(R11, 0x00000000)  returns 0x00 (0000ms, 0592ms total)
T32A8 000:646 JLINK_WriteReg(R12, 0x00000000)  returns 0x00 (0000ms, 0592ms total)
T32A8 000:646 JLINK_WriteReg(R13 (SP), 0x20000800)  returns 0x00 (0000ms, 0592ms total)
T32A8 000:646 JLINK_WriteReg(R14, 0x20000001)  returns 0x00 (0000ms, 0592ms total)
T32A8 000:646 JLINK_WriteReg(R15 (PC), 0x20000038)  returns 0x00 (0000ms, 0592ms total)
T32A8 000:646 JLINK_WriteReg(XPSR, 0x01000000)  returns 0x00 (0000ms, 0592ms total)
T32A8 000:646 JLINK_WriteReg(MSP, 0x20000800)  returns 0x00 (0000ms, 0592ms total)
T32A8 000:646 JLINK_WriteReg(PSP, 0x20000800)  returns 0x00 (0000ms, 0592ms total)
T32A8 000:646 JLINK_WriteReg(CFBP, 0x00000000)  returns 0x00 (0000ms, 0592ms total)
T32A8 000:646 JLINK_SetBPEx(Addr = 0x20000000, Type = 0xFFFFFFF2) -- CPU_ReadMem(2 bytes @ 0x20000000)  returns 0x00000001 (0000ms, 0592ms total)
T32A8 000:646 JLINK_Go() -- CPU_WriteMem(2 bytes @ 0x20000000) -- CPU_ReadMem(4 bytes @ 0xE0001000) -- CPU_WriteMem(4 bytes @ 0xE0002008) -- CPU_WriteMem(4 bytes @ 0xE000200C) -- CPU_WriteMem(4 bytes @ 0xE0002010) -- CPU_WriteMem(4 bytes @ 0xE0002014) -- CPU_WriteMem(4 bytes @ 0xE0002018) -- CPU_WriteMem(4 bytes @ 0xE000201C) -- CPU_WriteMem(4 bytes @ 0xE0001004) (0004ms, 0596ms total)
T32A8 000:650 JLINK_IsHalted() -- CPU_ReadMem(2 bytes @ 0x20000000)  returns TRUE (0002ms, 0598ms total)
T32A8 000:652 JLINK_ReadReg(R15 (PC))  returns 0x20000000 (0000ms, 0596ms total)
T32A8 000:652 JLINK_ClrBPEx(BPHandle = 0x00000001)  returns 0x00 (0000ms, 0596ms total)
T32A8 000:652 JLINK_ReadReg(R0)  returns 0x00000000 (0000ms, 0596ms total)
T32A8 000:653 JLINK_WriteReg(R0, 0x08000000)  returns 0x00 (0000ms, 0596ms total)
T32A8 000:653 JLINK_WriteReg(R1, 0x017D7840)  returns 0x00 (0000ms, 0596ms total)
T32A8 000:653 JLINK_WriteReg(R2, 0x00000001)  returns 0x00 (0000ms, 0596ms total)
T32A8 000:653 JLINK_WriteReg(R3, 0x00000000)  returns 0x00 (0000ms, 0596ms total)
T32A8 000:653 JLINK_WriteReg(R4, 0x00000000)  returns 0x00 (0000ms, 0596ms total)
T32A8 000:653 JLINK_WriteReg(R5, 0x00000000)  returns 0x00 (0000ms, 0596ms total)
T32A8 000:653 JLINK_WriteReg(R6, 0x00000000)  returns 0x00 (0000ms, 0596ms total)
T32A8 000:653 JLINK_WriteReg(R7, 0x00000000)  returns 0x00 (0000ms, 0596ms total)
T32A8 000:653 JLINK_WriteReg(R8, 0x00000000)  returns 0x00 (0000ms, 0596ms total)
T32A8 000:653 JLINK_WriteReg(R9, 0x20000160)  returns 0x00 (0000ms, 0596ms total)
T32A8 000:653 JLINK_WriteReg(R10, 0x00000000)  returns 0x00 (0000ms, 0596ms total)
T32A8 000:653 JLINK_WriteReg(R11, 0x00000000)  returns 0x00 (0000ms, 0596ms total)
T32A8 000:653 JLINK_WriteReg(R12, 0x00000000)  returns 0x00 (0000ms, 0596ms total)
T32A8 000:653 JLINK_WriteReg(R13 (SP), 0x20000800)  returns 0x00 (0000ms, 0596ms total)
T32A8 000:653 JLINK_WriteReg(R14, 0x20000001)  returns 0x00 (0000ms, 0596ms total)
T32A8 000:653 JLINK_WriteReg(R15 (PC), 0x2000007C)  returns 0x00 (0000ms, 0596ms total)
T32A8 000:653 JLINK_WriteReg(XPSR, 0x01000000)  returns 0x00 (0000ms, 0596ms total)
T32A8 000:653 JLINK_WriteReg(MSP, 0x20000800)  returns 0x00 (0000ms, 0596ms total)
T32A8 000:653 JLINK_WriteReg(PSP, 0x20000800)  returns 0x00 (0000ms, 0596ms total)
T32A8 000:653 JLINK_WriteReg(CFBP, 0x00000000)  returns 0x00 (0000ms, 0596ms total)
T32A8 000:653 JLINK_SetBPEx(Addr = 0x20000000, Type = 0xFFFFFFF2)  returns 0x00000002 (0000ms, 0596ms total)
T32A8 000:653 JLINK_Go() -- CPU_ReadMem(4 bytes @ 0xE0001000) (0001ms, 0597ms total)
T32A8 000:654 JLINK_IsHalted()  returns FALSE (0001ms, 0598ms total)
T32A8 000:704 JLINK_IsHalted() -- CPU_ReadMem(2 bytes @ 0x20000000)  returns TRUE (0003ms, 0600ms total)
T32A8 000:707 JLINK_ReadReg(R15 (PC))  returns 0x20000000 (0000ms, 0597ms total)
T32A8 000:707 JLINK_ClrBPEx(BPHandle = 0x00000002)  returns 0x00 (0000ms, 0597ms total)
T32A8 000:707 JLINK_ReadReg(R0)  returns 0x00000000 (0000ms, 0597ms total)
T32A8 000:757 JLINK_WriteReg(R0, 0x00000001)  returns 0x00 (0000ms, 0597ms total)
T32A8 000:757 JLINK_WriteReg(R1, 0x017D7840)  returns 0x00 (0000ms, 0597ms total)
T32A8 000:757 JLINK_WriteReg(R2, 0x00000001)  returns 0x00 (0000ms, 0597ms total)
T32A8 000:757 JLINK_WriteReg(R3, 0x00000000)  returns 0x00 (0000ms, 0597ms total)
T32A8 000:757 JLINK_WriteReg(R4, 0x00000000)  returns 0x00 (0000ms, 0597ms total)
T32A8 000:757 JLINK_WriteReg(R5, 0x00000000)  returns 0x00 (0000ms, 0597ms total)
T32A8 000:757 JLINK_WriteReg(R6, 0x00000000)  returns 0x00 (0000ms, 0597ms total)
T32A8 000:757 JLINK_WriteReg(R7, 0x00000000)  returns 0x00 (0000ms, 0597ms total)
T32A8 000:757 JLINK_WriteReg(R8, 0x00000000)  returns 0x00 (0000ms, 0597ms total)
T32A8 000:757 JLINK_WriteReg(R9, 0x20000160)  returns 0x00 (0000ms, 0597ms total)
T32A8 000:757 JLINK_WriteReg(R10, 0x00000000)  returns 0x00 (0000ms, 0597ms total)
T32A8 000:757 JLINK_WriteReg(R11, 0x00000000)  returns 0x00 (0000ms, 0597ms total)
T32A8 000:757 JLINK_WriteReg(R12, 0x00000000)  returns 0x00 (0000ms, 0597ms total)
T32A8 000:757 JLINK_WriteReg(R13 (SP), 0x20000800)  returns 0x00 (0000ms, 0597ms total)
T32A8 000:757 JLINK_WriteReg(R14, 0x20000001)  returns 0x00 (0000ms, 0597ms total)
T32A8 000:757 JLINK_WriteReg(R15 (PC), 0x2000006A)  returns 0x00 (0000ms, 0597ms total)
T32A8 000:757 JLINK_WriteReg(XPSR, 0x01000000)  returns 0x00 (0000ms, 0597ms total)
T32A8 000:757 JLINK_WriteReg(MSP, 0x20000800)  returns 0x00 (0000ms, 0597ms total)
T32A8 000:757 JLINK_WriteReg(PSP, 0x20000800)  returns 0x00 (0000ms, 0597ms total)
T32A8 000:757 JLINK_WriteReg(CFBP, 0x00000000)  returns 0x00 (0000ms, 0597ms total)
T32A8 000:757 JLINK_SetBPEx(Addr = 0x20000000, Type = 0xFFFFFFF2)  returns 0x00000003 (0000ms, 0597ms total)
T32A8 000:757 JLINK_Go() -- CPU_ReadMem(4 bytes @ 0xE0001000) (0002ms, 0599ms total)
T32A8 000:759 JLINK_IsHalted() -- CPU_ReadMem(2 bytes @ 0x20000000)  returns TRUE (0002ms, 0601ms total)
T32A8 000:761 JLINK_ReadReg(R15 (PC))  returns 0x20000000 (0000ms, 0599ms total)
T32A8 000:761 JLINK_ClrBPEx(BPHandle = 0x00000003)  returns 0x00 (0000ms, 0599ms total)
T32A8 000:761 JLINK_ReadReg(R0)  returns 0x00000000 (0000ms, 0599ms total)
T32A8 000:763 JLINK_WriteMem(0x20000000, 0x0164 Bytes, ...) - Data: 00 BE 0A E0 0D 78 2D 06 68 40 08 24 40 00 00 D3 ... -- CPU_WriteMem(356 bytes @ 0x20000000)  returns 0x164 (0002ms, 0601ms total)
T32A8 000:765 JLINK_WriteReg(R0, 0x08000000)  returns 0x00 (0000ms, 0601ms total)
T32A8 000:765 JLINK_WriteReg(R1, 0x017D7840)  returns 0x00 (0000ms, 0601ms total)
T32A8 000:765 JLINK_WriteReg(R2, 0x00000002)  returns 0x00 (0000ms, 0601ms total)
T32A8 000:765 JLINK_WriteReg(R3, 0x00000000)  returns 0x00 (0000ms, 0601ms total)
T32A8 000:765 JLINK_WriteReg(R4, 0x00000000)  returns 0x00 (0000ms, 0601ms total)
T32A8 000:765 JLINK_WriteReg(R5, 0x00000000)  returns 0x00 (0000ms, 0601ms total)
T32A8 000:765 JLINK_WriteReg(R6, 0x00000000)  returns 0x00 (0001ms, 0602ms total)
T32A8 000:766 JLINK_WriteReg(R7, 0x00000000)  returns 0x00 (0000ms, 0602ms total)
T32A8 000:766 JLINK_WriteReg(R8, 0x00000000)  returns 0x00 (0000ms, 0602ms total)
T32A8 000:766 JLINK_WriteReg(R9, 0x20000160)  returns 0x00 (0000ms, 0602ms total)
T32A8 000:766 JLINK_WriteReg(R10, 0x00000000)  returns 0x00 (0000ms, 0602ms total)
T32A8 000:766 JLINK_WriteReg(R11, 0x00000000)  returns 0x00 (0000ms, 0602ms total)
T32A8 000:766 JLINK_WriteReg(R12, 0x00000000)  returns 0x00 (0000ms, 0602ms total)
T32A8 000:766 JLINK_WriteReg(R13 (SP), 0x20000800)  returns 0x00 (0000ms, 0602ms total)
T32A8 000:766 JLINK_WriteReg(R14, 0x20000001)  returns 0x00 (0000ms, 0602ms total)
T32A8 000:766 JLINK_WriteReg(R15 (PC), 0x20000038)  returns 0x00 (0000ms, 0602ms total)
T32A8 000:766 JLINK_WriteReg(XPSR, 0x01000000)  returns 0x00 (0000ms, 0602ms total)
T32A8 000:766 JLINK_WriteReg(MSP, 0x20000800)  returns 0x00 (0000ms, 0602ms total)
T32A8 000:766 JLINK_WriteReg(PSP, 0x20000800)  returns 0x00 (0000ms, 0602ms total)
T32A8 000:766 JLINK_WriteReg(CFBP, 0x00000000)  returns 0x00 (0000ms, 0602ms total)
T32A8 000:766 JLINK_SetBPEx(Addr = 0x20000000, Type = 0xFFFFFFF2) -- CPU_ReadMem(2 bytes @ 0x20000000)  returns 0x00000004 (0000ms, 0602ms total)
T32A8 000:766 JLINK_Go() -- CPU_WriteMem(2 bytes @ 0x20000000) -- CPU_ReadMem(4 bytes @ 0xE0001000) (0002ms, 0604ms total)
T32A8 000:768 JLINK_IsHalted() -- CPU_ReadMem(2 bytes @ 0x20000000)  returns TRUE (0002ms, 0606ms total)
T32A8 000:770 JLINK_ReadReg(R15 (PC))  returns 0x20000000 (0000ms, 0604ms total)
T32A8 000:770 JLINK_ClrBPEx(BPHandle = 0x00000004)  returns 0x00 (0000ms, 0604ms total)
T32A8 000:770 JLINK_ReadReg(R0)  returns 0x00000000 (0000ms, 0604ms total)
T32A8 000:770 JLINK_WriteMem(0x20000164, 0x0400 Bytes, ...) - Data: 40 D4 00 20 65 01 00 08 55 12 00 08 4B 11 00 08 ... -- CPU_WriteMem(1024 bytes @ 0x20000164)  returns 0x400 (0005ms, 0609ms total)
T32A8 000:775 JLINK_WriteReg(R0, 0x08000000)  returns 0x00 (0000ms, 0609ms total)
T32A8 000:775 JLINK_WriteReg(R1, 0x00000400)  returns 0x00 (0000ms, 0609ms total)
T32A8 000:775 JLINK_WriteReg(R2, 0x20000164)  returns 0x00 (0000ms, 0609ms total)
T32A8 000:775 JLINK_WriteReg(R3, 0x00000000)  returns 0x00 (0000ms, 0609ms total)
T32A8 000:775 JLINK_WriteReg(R4, 0x00000000)  returns 0x00 (0000ms, 0609ms total)
T32A8 000:775 JLINK_WriteReg(R5, 0x00000000)  returns 0x00 (0000ms, 0609ms total)
T32A8 000:775 JLINK_WriteReg(R6, 0x00000000)  returns 0x00 (0000ms, 0609ms total)
T32A8 000:775 JLINK_WriteReg(R7, 0x00000000)  returns 0x00 (0000ms, 0609ms total)
T32A8 000:775 JLINK_WriteReg(R8, 0x00000000)  returns 0x00 (0000ms, 0609ms total)
T32A8 000:775 JLINK_WriteReg(R9, 0x20000160)  returns 0x00 (0000ms, 0609ms total)
T32A8 000:775 JLINK_WriteReg(R10, 0x00000000)  returns 0x00 (0000ms, 0609ms total)
T32A8 000:775 JLINK_WriteReg(R11, 0x00000000)  returns 0x00 (0000ms, 0609ms total)
T32A8 000:775 JLINK_WriteReg(R12, 0x00000000)  returns 0x00 (0000ms, 0609ms total)
T32A8 000:775 JLINK_WriteReg(R13 (SP), 0x20000800)  returns 0x00 (0000ms, 0609ms total)
T32A8 000:775 JLINK_WriteReg(R14, 0x20000001)  returns 0x00 (0000ms, 0609ms total)
T32A8 000:775 JLINK_WriteReg(R15 (PC), 0x200000F4)  returns 0x00 (0000ms, 0609ms total)
T32A8 000:775 JLINK_WriteReg(XPSR, 0x01000000)  returns 0x00 (0000ms, 0609ms total)
T32A8 000:775 JLINK_WriteReg(MSP, 0x20000800)  returns 0x00 (0000ms, 0609ms total)
T32A8 000:775 JLINK_WriteReg(PSP, 0x20000800)  returns 0x00 (0000ms, 0609ms total)
T32A8 000:775 JLINK_WriteReg(CFBP, 0x00000000)  returns 0x00 (0000ms, 0609ms total)
T32A8 000:775 JLINK_SetBPEx(Addr = 0x20000000, Type = 0xFFFFFFF2)  returns 0x00000005 (0000ms, 0609ms total)
T32A8 000:775 JLINK_Go() -- CPU_ReadMem(4 bytes @ 0xE0001000) (0001ms, 0610ms total)
T32A8 000:776 JLINK_IsHalted()  returns FALSE (0001ms, 0611ms total)
T32A8 000:786 JLINK_IsHalted()  returns FALSE (0000ms, 0610ms total)
T32A8 000:787 JLINK_IsHalted()  returns FALSE (0000ms, 0610ms total)
T32A8 000:789 JLINK_IsHalted()  returns FALSE (0000ms, 0610ms total)
T32A8 000:790 JLINK_IsHalted()  returns FALSE (0000ms, 0610ms total)
T32A8 000:791 JLINK_IsHalted()  returns FALSE (0001ms, 0611ms total)
T32A8 000:793 JLINK_IsHalted()  returns FALSE (0000ms, 0610ms total)
T32A8 000:794 JLINK_IsHalted()  returns FALSE (0001ms, 0611ms total)
T32A8 000:796 JLINK_IsHalted()  returns FALSE (0000ms, 0610ms total)
T32A8 000:798 JLINK_IsHalted()  returns FALSE (0000ms, 0610ms total)
T32A8 000:805 JLINK_IsHalted()  returns FALSE (0000ms, 0610ms total)
T32A8 000:806 JLINK_IsHalted()  returns FALSE (0000ms, 0610ms total)
T32A8 000:808 JLINK_IsHalted() -- CPU_ReadMem(2 bytes @ 0x20000000)  returns TRUE (0002ms, 0612ms total)
T32A8 000:810 JLINK_ReadReg(R15 (PC))  returns 0x20000000 (0000ms, 0610ms total)
T32A8 000:810 JLINK_ClrBPEx(BPHandle = 0x00000005)  returns 0x00 (0000ms, 0610ms total)
T32A8 000:810 JLINK_ReadReg(R0)  returns 0x00000000 (0000ms, 0610ms total)
T32A8 000:810 JLINK_WriteMem(0x20000164, 0x0400 Bytes, ...) - Data: B7 FF 00 21 4F F4 80 40 00 F0 B2 FF 10 BD 01 B5 ... -- CPU_WriteMem(1024 bytes @ 0x20000164)  returns 0x400 (0004ms, 0614ms total)
T32A8 000:814 JLINK_WriteReg(R0, 0x08000400)  returns 0x00 (0000ms, 0614ms total)
T32A8 000:814 JLINK_WriteReg(R1, 0x00000400)  returns 0x00 (0000ms, 0614ms total)
T32A8 000:814 JLINK_WriteReg(R2, 0x20000164)  returns 0x00 (0000ms, 0614ms total)
T32A8 000:814 JLINK_WriteReg(R3, 0x00000000)  returns 0x00 (0000ms, 0614ms total)
T32A8 000:814 JLINK_WriteReg(R4, 0x00000000)  returns 0x00 (0000ms, 0614ms total)
T32A8 000:814 JLINK_WriteReg(R5, 0x00000000)  returns 0x00 (0000ms, 0614ms total)
T32A8 000:814 JLINK_WriteReg(R6, 0x00000000)  returns 0x00 (0000ms, 0614ms total)
T32A8 000:814 JLINK_WriteReg(R7, 0x00000000)  returns 0x00 (0000ms, 0614ms total)
T32A8 000:814 JLINK_WriteReg(R8, 0x00000000)  returns 0x00 (0000ms, 0614ms total)
T32A8 000:814 JLINK_WriteReg(R9, 0x20000160)  returns 0x00 (0000ms, 0614ms total)
T32A8 000:814 JLINK_WriteReg(R10, 0x00000000)  returns 0x00 (0000ms, 0614ms total)
T32A8 000:814 JLINK_WriteReg(R11, 0x00000000)  returns 0x00 (0000ms, 0614ms total)
T32A8 000:814 JLINK_WriteReg(R12, 0x00000000)  returns 0x00 (0000ms, 0614ms total)
T32A8 000:814 JLINK_WriteReg(R13 (SP), 0x20000800)  returns 0x00 (0000ms, 0614ms total)
T32A8 000:814 JLINK_WriteReg(R14, 0x20000001)  returns 0x00 (0000ms, 0614ms total)
T32A8 000:814 JLINK_WriteReg(R15 (PC), 0x200000F4)  returns 0x00 (0000ms, 0614ms total)
T32A8 000:814 JLINK_WriteReg(XPSR, 0x01000000)  returns 0x00 (0000ms, 0614ms total)
T32A8 000:814 JLINK_WriteReg(MSP, 0x20000800)  returns 0x00 (0000ms, 0614ms total)
T32A8 000:814 JLINK_WriteReg(PSP, 0x20000800)  returns 0x00 (0000ms, 0614ms total)
T32A8 000:814 JLINK_WriteReg(CFBP, 0x00000000)  returns 0x00 (0000ms, 0614ms total)
T32A8 000:814 JLINK_SetBPEx(Addr = 0x20000000, Type = 0xFFFFFFF2)  returns 0x00000006 (0000ms, 0614ms total)
T32A8 000:814 JLINK_Go() -- CPU_ReadMem(4 bytes @ 0xE0001000) (0001ms, 0615ms total)
T32A8 000:815 JLINK_IsHalted()  returns FALSE (0001ms, 0616ms total)
T32A8 000:818 JLINK_IsHalted()  returns FALSE (0000ms, 0615ms total)
T32A8 000:820 JLINK_IsHalted()  returns FALSE (0000ms, 0615ms total)
T32A8 000:821 JLINK_IsHalted()  returns FALSE (0001ms, 0616ms total)
T32A8 000:823 JLINK_IsHalted()  returns FALSE (0000ms, 0615ms total)
T32A8 000:825 JLINK_IsHalted()  returns FALSE (0000ms, 0615ms total)
T32A8 000:827 JLINK_IsHalted()  returns FALSE (0001ms, 0616ms total)
T32A8 000:833 JLINK_IsHalted()  returns FALSE (0001ms, 0616ms total)
T32A8 000:835 JLINK_IsHalted()  returns FALSE (0000ms, 0615ms total)
T32A8 000:836 JLINK_IsHalted()  returns FALSE (0001ms, 0616ms total)
T32A8 000:838 JLINK_IsHalted()  returns FALSE (0000ms, 0615ms total)
T32A8 000:839 JLINK_IsHalted()  returns FALSE (0001ms, 0616ms total)
T32A8 000:841 JLINK_IsHalted()  returns FALSE (0000ms, 0615ms total)
T32A8 000:842 JLINK_IsHalted()  returns FALSE (0000ms, 0615ms total)
T32A8 000:844 JLINK_IsHalted()  returns FALSE (0000ms, 0615ms total)
T32A8 000:846 JLINK_IsHalted()  returns FALSE (0000ms, 0615ms total)
T32A8 000:847 JLINK_IsHalted() -- CPU_ReadMem(2 bytes @ 0x20000000)  returns TRUE (0002ms, 0617ms total)
T32A8 000:849 JLINK_ReadReg(R15 (PC))  returns 0x20000000 (0000ms, 0615ms total)
T32A8 000:849 JLINK_ClrBPEx(BPHandle = 0x00000006)  returns 0x00 (0000ms, 0615ms total)
T32A8 000:849 JLINK_ReadReg(R0)  returns 0x00000000 (0000ms, 0615ms total)
T32A8 000:849 JLINK_WriteMem(0x20000164, 0x0400 Bytes, ...) - Data: 00 98 A0 42 F3 D3 06 4C 00 98 A0 42 01 D1 00 20 ... -- CPU_WriteMem(1024 bytes @ 0x20000164)  returns 0x400 (0005ms, 0620ms total)
T32A8 000:854 JLINK_WriteReg(R0, 0x08000800)  returns 0x00 (0000ms, 0620ms total)
T32A8 000:854 JLINK_WriteReg(R1, 0x00000400)  returns 0x00 (0000ms, 0620ms total)
T32A8 000:854 JLINK_WriteReg(R2, 0x20000164)  returns 0x00 (0000ms, 0620ms total)
T32A8 000:854 JLINK_WriteReg(R3, 0x00000000)  returns 0x00 (0000ms, 0620ms total)
T32A8 000:854 JLINK_WriteReg(R4, 0x00000000)  returns 0x00 (0000ms, 0620ms total)
T32A8 000:854 JLINK_WriteReg(R5, 0x00000000)  returns 0x00 (0000ms, 0620ms total)
T32A8 000:854 JLINK_WriteReg(R6, 0x00000000)  returns 0x00 (0000ms, 0620ms total)
T32A8 000:854 JLINK_WriteReg(R7, 0x00000000)  returns 0x00 (0000ms, 0620ms total)
T32A8 000:854 JLINK_WriteReg(R8, 0x00000000)  returns 0x00 (0000ms, 0620ms total)
T32A8 000:854 JLINK_WriteReg(R9, 0x20000160)  returns 0x00 (0000ms, 0620ms total)
T32A8 000:854 JLINK_WriteReg(R10, 0x00000000)  returns 0x00 (0000ms, 0620ms total)
T32A8 000:854 JLINK_WriteReg(R11, 0x00000000)  returns 0x00 (0000ms, 0620ms total)
T32A8 000:854 JLINK_WriteReg(R12, 0x00000000)  returns 0x00 (0000ms, 0620ms total)
T32A8 000:854 JLINK_WriteReg(R13 (SP), 0x20000800)  returns 0x00 (0000ms, 0620ms total)
T32A8 000:854 JLINK_WriteReg(R14, 0x20000001)  returns 0x00 (0000ms, 0620ms total)
T32A8 000:854 JLINK_WriteReg(R15 (PC), 0x200000F4)  returns 0x00 (0000ms, 0620ms total)
T32A8 000:854 JLINK_WriteReg(XPSR, 0x01000000)  returns 0x00 (0000ms, 0620ms total)
T32A8 000:854 JLINK_WriteReg(MSP, 0x20000800)  returns 0x00 (0000ms, 0620ms total)
T32A8 000:854 JLINK_WriteReg(PSP, 0x20000800)  returns 0x00 (0000ms, 0620ms total)
T32A8 000:854 JLINK_WriteReg(CFBP, 0x00000000)  returns 0x00 (0000ms, 0620ms total)
T32A8 000:854 JLINK_SetBPEx(Addr = 0x20000000, Type = 0xFFFFFFF2)  returns 0x00000007 (0000ms, 0620ms total)
T32A8 000:854 JLINK_Go() -- CPU_ReadMem(4 bytes @ 0xE0001000) (0001ms, 0621ms total)
T32A8 000:855 JLINK_IsHalted()  returns FALSE (0001ms, 0622ms total)
T32A8 000:857 JLINK_IsHalted()  returns FALSE (0000ms, 0621ms total)
T32A8 000:858 JLINK_IsHalted()  returns FALSE (0001ms, 0622ms total)
T32A8 000:864 JLINK_IsHalted()  returns FALSE (0000ms, 0621ms total)
T32A8 000:867 JLINK_IsHalted()  returns FALSE (0000ms, 0621ms total)
T32A8 000:868 JLINK_IsHalted()  returns FALSE (0000ms, 0621ms total)
T32A8 000:869 JLINK_IsHalted()  returns FALSE (0001ms, 0622ms total)
T32A8 000:871 JLINK_IsHalted()  returns FALSE (0000ms, 0621ms total)
T32A8 000:872 JLINK_IsHalted()  returns FALSE (0000ms, 0621ms total)
T32A8 000:874 JLINK_IsHalted()  returns FALSE (0000ms, 0621ms total)
T32A8 000:877 JLINK_IsHalted()  returns FALSE (0000ms, 0621ms total)
T32A8 000:879 JLINK_IsHalted()  returns FALSE (0001ms, 0622ms total)
T32A8 000:881 JLINK_IsHalted()  returns FALSE (0000ms, 0621ms total)
T32A8 000:883 JLINK_IsHalted()  returns FALSE (0001ms, 0622ms total)
T32A8 000:886 JLINK_IsHalted()  returns FALSE (0000ms, 0621ms total)
T32A8 000:887 JLINK_IsHalted() -- CPU_ReadMem(2 bytes @ 0x20000000)  returns TRUE (0002ms, 0623ms total)
T32A8 000:889 JLINK_ReadReg(R15 (PC))  returns 0x20000000 (0000ms, 0621ms total)
T32A8 000:889 JLINK_ClrBPEx(BPHandle = 0x00000007)  returns 0x00 (0000ms, 0621ms total)
T32A8 000:889 JLINK_ReadReg(R0)  returns 0x00000000 (0000ms, 0621ms total)
T32A8 000:889 JLINK_WriteMem(0x20000164, 0x0400 Bytes, ...) - Data: 10 01 09 B1 03 20 00 E0 04 20 70 47 00 20 02 40 ... -- CPU_WriteMem(1024 bytes @ 0x20000164)  returns 0x400 (0005ms, 0626ms total)
T32A8 000:894 JLINK_WriteReg(R0, 0x08000C00)  returns 0x00 (0000ms, 0626ms total)
T32A8 000:894 JLINK_WriteReg(R1, 0x00000400)  returns 0x00 (0000ms, 0626ms total)
T32A8 000:894 JLINK_WriteReg(R2, 0x20000164)  returns 0x00 (0000ms, 0626ms total)
T32A8 000:894 JLINK_WriteReg(R3, 0x00000000)  returns 0x00 (0000ms, 0626ms total)
T32A8 000:894 JLINK_WriteReg(R4, 0x00000000)  returns 0x00 (0000ms, 0626ms total)
T32A8 000:894 JLINK_WriteReg(R5, 0x00000000)  returns 0x00 (0000ms, 0626ms total)
T32A8 000:894 JLINK_WriteReg(R6, 0x00000000)  returns 0x00 (0000ms, 0626ms total)
T32A8 000:894 JLINK_WriteReg(R7, 0x00000000)  returns 0x00 (0000ms, 0626ms total)
T32A8 000:894 JLINK_WriteReg(R8, 0x00000000)  returns 0x00 (0000ms, 0626ms total)
T32A8 000:894 JLINK_WriteReg(R9, 0x20000160)  returns 0x00 (0000ms, 0626ms total)
T32A8 000:894 JLINK_WriteReg(R10, 0x00000000)  returns 0x00 (0000ms, 0626ms total)
T32A8 000:894 JLINK_WriteReg(R11, 0x00000000)  returns 0x00 (0000ms, 0626ms total)
T32A8 000:894 JLINK_WriteReg(R12, 0x00000000)  returns 0x00 (0000ms, 0626ms total)
T32A8 000:894 JLINK_WriteReg(R13 (SP), 0x20000800)  returns 0x00 (0000ms, 0626ms total)
T32A8 000:894 JLINK_WriteReg(R14, 0x20000001)  returns 0x00 (0000ms, 0626ms total)
T32A8 000:894 JLINK_WriteReg(R15 (PC), 0x200000F4)  returns 0x00 (0000ms, 0626ms total)
T32A8 000:894 JLINK_WriteReg(XPSR, 0x01000000)  returns 0x00 (0000ms, 0626ms total)
T32A8 000:894 JLINK_WriteReg(MSP, 0x20000800)  returns 0x00 (0000ms, 0626ms total)
T32A8 000:894 JLINK_WriteReg(PSP, 0x20000800)  returns 0x00 (0000ms, 0626ms total)
T32A8 000:894 JLINK_WriteReg(CFBP, 0x00000000)  returns 0x00 (0000ms, 0626ms total)
T32A8 000:894 JLINK_SetBPEx(Addr = 0x20000000, Type = 0xFFFFFFF2)  returns 0x00000008 (0000ms, 0626ms total)
T32A8 000:894 JLINK_Go() -- CPU_ReadMem(4 bytes @ 0xE0001000) (0001ms, 0627ms total)
T32A8 000:895 JLINK_IsHalted()  returns FALSE (0001ms, 0628ms total)
T32A8 000:897 JLINK_IsHalted()  returns FALSE (0000ms, 0627ms total)
T32A8 000:898 JLINK_IsHalted()  returns FALSE (0000ms, 0627ms total)
T32A8 000:900 JLINK_IsHalted()  returns FALSE (0001ms, 0628ms total)
T32A8 000:902 JLINK_IsHalted()  returns FALSE (0000ms, 0627ms total)
T32A8 000:903 JLINK_IsHalted()  returns FALSE (0000ms, 0627ms total)
T32A8 000:905 JLINK_IsHalted()  returns FALSE (0000ms, 0627ms total)
T32A8 000:909 JLINK_IsHalted()  returns FALSE (0001ms, 0628ms total)
T32A8 000:911 JLINK_IsHalted()  returns FALSE (0000ms, 0627ms total)
T32A8 000:912 JLINK_IsHalted()  returns FALSE (0000ms, 0627ms total)
T32A8 000:914 JLINK_IsHalted()  returns FALSE (0000ms, 0627ms total)
T32A8 000:915 JLINK_IsHalted()  returns FALSE (0000ms, 0627ms total)
T32A8 000:917 JLINK_IsHalted()  returns FALSE (0000ms, 0627ms total)
T32A8 000:919 JLINK_IsHalted()  returns FALSE (0001ms, 0628ms total)
T32A8 000:922 JLINK_IsHalted()  returns FALSE (0000ms, 0627ms total)
T32A8 000:923 JLINK_IsHalted()  returns FALSE (0000ms, 0627ms total)
T32A8 000:924 JLINK_IsHalted()  returns FALSE (0001ms, 0628ms total)
T32A8 000:926 JLINK_IsHalted()  returns FALSE (0000ms, 0627ms total)
T32A8 000:928 JLINK_IsHalted() -- CPU_ReadMem(2 bytes @ 0x20000000)  returns TRUE (0002ms, 0629ms total)
T32A8 000:930 JLINK_ReadReg(R15 (PC))  returns 0x20000000 (0000ms, 0627ms total)
T32A8 000:930 JLINK_ClrBPEx(BPHandle = 0x00000008)  returns 0x00 (0000ms, 0627ms total)
T32A8 000:930 JLINK_ReadReg(R0)  returns 0x00000000 (0000ms, 0627ms total)
T32A8 000:930 JLINK_WriteMem(0x20000164, 0x0400 Bytes, ...) - Data: 0F 0C 0C FA 03 F7 BC 43 05 FA 03 FC 4C EA 04 04 ... -- CPU_WriteMem(1024 bytes @ 0x20000164)  returns 0x400 (0004ms, 0631ms total)
T32A8 000:934 JLINK_WriteReg(R0, 0x08001000)  returns 0x00 (0000ms, 0631ms total)
T32A8 000:934 JLINK_WriteReg(R1, 0x00000400)  returns 0x00 (0000ms, 0631ms total)
T32A8 000:934 JLINK_WriteReg(R2, 0x20000164)  returns 0x00 (0000ms, 0631ms total)
T32A8 000:934 JLINK_WriteReg(R3, 0x00000000)  returns 0x00 (0000ms, 0631ms total)
T32A8 000:934 JLINK_WriteReg(R4, 0x00000000)  returns 0x00 (0000ms, 0631ms total)
T32A8 000:934 JLINK_WriteReg(R5, 0x00000000)  returns 0x00 (0000ms, 0631ms total)
T32A8 000:934 JLINK_WriteReg(R6, 0x00000000)  returns 0x00 (0000ms, 0631ms total)
T32A8 000:934 JLINK_WriteReg(R7, 0x00000000)  returns 0x00 (0000ms, 0631ms total)
T32A8 000:934 JLINK_WriteReg(R8, 0x00000000)  returns 0x00 (0000ms, 0631ms total)
T32A8 000:934 JLINK_WriteReg(R9, 0x20000160)  returns 0x00 (0000ms, 0631ms total)
T32A8 000:934 JLINK_WriteReg(R10, 0x00000000)  returns 0x00 (0000ms, 0631ms total)
T32A8 000:934 JLINK_WriteReg(R11, 0x00000000)  returns 0x00 (0000ms, 0631ms total)
T32A8 000:934 JLINK_WriteReg(R12, 0x00000000)  returns 0x00 (0000ms, 0631ms total)
T32A8 000:934 JLINK_WriteReg(R13 (SP), 0x20000800)  returns 0x00 (0000ms, 0631ms total)
T32A8 000:934 JLINK_WriteReg(R14, 0x20000001)  returns 0x00 (0000ms, 0631ms total)
T32A8 000:934 JLINK_WriteReg(R15 (PC), 0x200000F4)  returns 0x00 (0000ms, 0631ms total)
T32A8 000:934 JLINK_WriteReg(XPSR, 0x01000000)  returns 0x00 (0000ms, 0631ms total)
T32A8 000:934 JLINK_WriteReg(MSP, 0x20000800)  returns 0x00 (0000ms, 0631ms total)
T32A8 000:934 JLINK_WriteReg(PSP, 0x20000800)  returns 0x00 (0000ms, 0631ms total)
T32A8 000:934 JLINK_WriteReg(CFBP, 0x00000000)  returns 0x00 (0000ms, 0631ms total)
T32A8 000:934 JLINK_SetBPEx(Addr = 0x20000000, Type = 0xFFFFFFF2)  returns 0x00000009 (0000ms, 0631ms total)
T32A8 000:934 JLINK_Go() -- CPU_ReadMem(4 bytes @ 0xE0001000) (0002ms, 0633ms total)
T32A8 000:936 JLINK_IsHalted()  returns FALSE (0000ms, 0633ms total)
T32A8 000:940 JLINK_IsHalted()  returns FALSE (0000ms, 0633ms total)
T32A8 000:942 JLINK_IsHalted()  returns FALSE (0000ms, 0633ms total)
T32A8 000:943 JLINK_IsHalted()  returns FALSE (0000ms, 0633ms total)
T32A8 000:945 JLINK_IsHalted()  returns FALSE (0001ms, 0634ms total)
T32A8 000:947 JLINK_IsHalted()  returns FALSE (0000ms, 0633ms total)
T32A8 000:948 JLINK_IsHalted()  returns FALSE (0000ms, 0633ms total)
T32A8 000:950 JLINK_IsHalted()  returns FALSE (0001ms, 0634ms total)
T32A8 000:953 JLINK_IsHalted()  returns FALSE (0000ms, 0633ms total)
T32A8 000:955 JLINK_IsHalted()  returns FALSE (0001ms, 0634ms total)
T32A8 000:957 JLINK_IsHalted()  returns FALSE (0000ms, 0633ms total)
T32A8 000:958 JLINK_IsHalted()  returns FALSE (0001ms, 0634ms total)
T32A8 000:960 JLINK_IsHalted()  returns FALSE (0000ms, 0633ms total)
T32A8 000:961 JLINK_IsHalted()  returns FALSE (0000ms, 0633ms total)
T32A8 000:964 JLINK_IsHalted()  returns FALSE (0000ms, 0633ms total)
T32A8 000:965 JLINK_IsHalted()  returns FALSE (0000ms, 0633ms total)
T32A8 000:969 JLINK_IsHalted() -- CPU_ReadMem(2 bytes @ 0x20000000)  returns TRUE (0002ms, 0635ms total)
T32A8 000:971 JLINK_ReadReg(R15 (PC))  returns 0x20000000 (0000ms, 0633ms total)
T32A8 000:971 JLINK_ClrBPEx(BPHandle = 0x00000009)  returns 0x00 (0000ms, 0633ms total)
T32A8 000:971 JLINK_ReadReg(R0)  returns 0x00000000 (0000ms, 0633ms total)
T32A8 000:971 JLINK_WriteMem(0x20000164, 0x0400 Bytes, ...) - Data: C0 F8 00 80 58 E0 DF F8 48 81 C0 F8 00 80 53 E0 ... -- CPU_WriteMem(1024 bytes @ 0x20000164)  returns 0x400 (0004ms, 0637ms total)
T32A8 000:975 JLINK_WriteReg(R0, 0x08001400)  returns 0x00 (0000ms, 0637ms total)
T32A8 000:975 JLINK_WriteReg(R1, 0x00000400)  returns 0x00 (0000ms, 0637ms total)
T32A8 000:975 JLINK_WriteReg(R2, 0x20000164)  returns 0x00 (0000ms, 0637ms total)
T32A8 000:975 JLINK_WriteReg(R3, 0x00000000)  returns 0x00 (0000ms, 0637ms total)
T32A8 000:975 JLINK_WriteReg(R4, 0x00000000)  returns 0x00 (0000ms, 0637ms total)
T32A8 000:975 JLINK_WriteReg(R5, 0x00000000)  returns 0x00 (0000ms, 0637ms total)
T32A8 000:975 JLINK_WriteReg(R6, 0x00000000)  returns 0x00 (0000ms, 0637ms total)
T32A8 000:975 JLINK_WriteReg(R7, 0x00000000)  returns 0x00 (0000ms, 0637ms total)
T32A8 000:975 JLINK_WriteReg(R8, 0x00000000)  returns 0x00 (0000ms, 0637ms total)
T32A8 000:975 JLINK_WriteReg(R9, 0x20000160)  returns 0x00 (0000ms, 0637ms total)
T32A8 000:975 JLINK_WriteReg(R10, 0x00000000)  returns 0x00 (0000ms, 0637ms total)
T32A8 000:975 JLINK_WriteReg(R11, 0x00000000)  returns 0x00 (0000ms, 0637ms total)
T32A8 000:975 JLINK_WriteReg(R12, 0x00000000)  returns 0x00 (0000ms, 0637ms total)
T32A8 000:975 JLINK_WriteReg(R13 (SP), 0x20000800)  returns 0x00 (0000ms, 0637ms total)
T32A8 000:975 JLINK_WriteReg(R14, 0x20000001)  returns 0x00 (0000ms, 0637ms total)
T32A8 000:975 JLINK_WriteReg(R15 (PC), 0x200000F4)  returns 0x00 (0000ms, 0637ms total)
T32A8 000:975 JLINK_WriteReg(XPSR, 0x01000000)  returns 0x00 (0000ms, 0637ms total)
T32A8 000:975 JLINK_WriteReg(MSP, 0x20000800)  returns 0x00 (0000ms, 0637ms total)
T32A8 000:975 JLINK_WriteReg(PSP, 0x20000800)  returns 0x00 (0000ms, 0637ms total)
T32A8 000:975 JLINK_WriteReg(CFBP, 0x00000000)  returns 0x00 (0000ms, 0637ms total)
T32A8 000:975 JLINK_SetBPEx(Addr = 0x20000000, Type = 0xFFFFFFF2)  returns 0x0000000A (0000ms, 0637ms total)
T32A8 000:975 JLINK_Go() -- CPU_ReadMem(4 bytes @ 0xE0001000) (0002ms, 0639ms total)
T32A8 000:977 JLINK_IsHalted()  returns FALSE (0000ms, 0639ms total)
T32A8 000:979 JLINK_IsHalted()  returns FALSE (0000ms, 0639ms total)
T32A8 000:981 JLINK_IsHalted()  returns FALSE (0000ms, 0639ms total)
T32A8 000:987 JLINK_IsHalted()  returns FALSE (0000ms, 0639ms total)
T32A8 000:988 JLINK_IsHalted()  returns FALSE (0001ms, 0640ms total)
T32A8 000:990 JLINK_IsHalted()  returns FALSE (0000ms, 0639ms total)
T32A8 000:991 JLINK_IsHalted()  returns FALSE (0000ms, 0639ms total)
T32A8 000:993 JLINK_IsHalted()  returns FALSE (0000ms, 0639ms total)
T32A8 000:995 JLINK_IsHalted()  returns FALSE (0000ms, 0639ms total)
T32A8 000:997 JLINK_IsHalted()  returns FALSE (0000ms, 0639ms total)
T32A8 000:999 JLINK_IsHalted()  returns FALSE (0000ms, 0639ms total)
T32A8 001:001 JLINK_IsHalted()  returns FALSE (0001ms, 0640ms total)
T32A8 001:004 JLINK_IsHalted()  returns FALSE (0000ms, 0639ms total)
T32A8 001:005 JLINK_IsHalted()  returns FALSE (0001ms, 0640ms total)
T32A8 001:007 JLINK_IsHalted()  returns FALSE (0000ms, 0639ms total)
T32A8 001:009 JLINK_IsHalted() -- CPU_ReadMem(2 bytes @ 0x20000000)  returns TRUE (0002ms, 0641ms total)
T32A8 001:011 JLINK_ReadReg(R15 (PC))  returns 0x20000000 (0000ms, 0639ms total)
T32A8 001:011 JLINK_ClrBPEx(BPHandle = 0x0000000A)  returns 0x00 (0000ms, 0639ms total)
T32A8 001:011 JLINK_ReadReg(R0)  returns 0x00000000 (0000ms, 0639ms total)
T32A8 001:013 JLINK_WriteMem(0x20000164, 0x0400 Bytes, ...) - Data: 10 71 01 98 B0 FB F1 F4 B4 F1 80 7F 00 D3 11 E0 ... -- CPU_WriteMem(1024 bytes @ 0x20000164)  returns 0x400 (0004ms, 0643ms total)
T32A8 001:017 JLINK_WriteReg(R0, 0x08001800)  returns 0x00 (0000ms, 0643ms total)
T32A8 001:017 JLINK_WriteReg(R1, 0x00000400)  returns 0x00 (0000ms, 0643ms total)
T32A8 001:017 JLINK_WriteReg(R2, 0x20000164)  returns 0x00 (0000ms, 0643ms total)
T32A8 001:017 JLINK_WriteReg(R3, 0x00000000)  returns 0x00 (0000ms, 0643ms total)
T32A8 001:017 JLINK_WriteReg(R4, 0x00000000)  returns 0x00 (0000ms, 0643ms total)
T32A8 001:017 JLINK_WriteReg(R5, 0x00000000)  returns 0x00 (0000ms, 0643ms total)
T32A8 001:017 JLINK_WriteReg(R6, 0x00000000)  returns 0x00 (0000ms, 0643ms total)
T32A8 001:017 JLINK_WriteReg(R7, 0x00000000)  returns 0x00 (0000ms, 0643ms total)
T32A8 001:017 JLINK_WriteReg(R8, 0x00000000)  returns 0x00 (0000ms, 0643ms total)
T32A8 001:017 JLINK_WriteReg(R9, 0x20000160)  returns 0x00 (0000ms, 0643ms total)
T32A8 001:017 JLINK_WriteReg(R10, 0x00000000)  returns 0x00 (0000ms, 0643ms total)
T32A8 001:017 JLINK_WriteReg(R11, 0x00000000)  returns 0x00 (0000ms, 0643ms total)
T32A8 001:017 JLINK_WriteReg(R12, 0x00000000)  returns 0x00 (0000ms, 0643ms total)
T32A8 001:017 JLINK_WriteReg(R13 (SP), 0x20000800)  returns 0x00 (0000ms, 0643ms total)
T32A8 001:017 JLINK_WriteReg(R14, 0x20000001)  returns 0x00 (0000ms, 0643ms total)
T32A8 001:017 JLINK_WriteReg(R15 (PC), 0x200000F4)  returns 0x00 (0000ms, 0643ms total)
T32A8 001:017 JLINK_WriteReg(XPSR, 0x01000000)  returns 0x00 (0000ms, 0643ms total)
T32A8 001:017 JLINK_WriteReg(MSP, 0x20000800)  returns 0x00 (0000ms, 0643ms total)
T32A8 001:017 JLINK_WriteReg(PSP, 0x20000800)  returns 0x00 (0000ms, 0643ms total)
T32A8 001:017 JLINK_WriteReg(CFBP, 0x00000000)  returns 0x00 (0000ms, 0643ms total)
T32A8 001:017 JLINK_SetBPEx(Addr = 0x20000000, Type = 0xFFFFFFF2)  returns 0x0000000B (0000ms, 0643ms total)
T32A8 001:017 JLINK_Go() -- CPU_ReadMem(4 bytes @ 0xE0001000) (0001ms, 0644ms total)
T32A8 001:018 JLINK_IsHalted()  returns FALSE (0001ms, 0645ms total)
T32A8 001:024 JLINK_IsHalted()  returns FALSE (0000ms, 0644ms total)
T32A8 001:025 JLINK_IsHalted()  returns FALSE (0001ms, 0645ms total)
T32A8 001:027 JLINK_IsHalted()  returns FALSE (0000ms, 0644ms total)
T32A8 001:028 JLINK_IsHalted()  returns FALSE (0000ms, 0644ms total)
T32A8 001:030 JLINK_IsHalted()  returns FALSE (0000ms, 0644ms total)
T32A8 001:031 JLINK_IsHalted()  returns FALSE (0000ms, 0644ms total)
T32A8 001:032 JLINK_IsHalted()  returns FALSE (0001ms, 0645ms total)
T32A8 001:035 JLINK_IsHalted()  returns FALSE (0000ms, 0644ms total)
T32A8 001:036 JLINK_IsHalted()  returns FALSE (0001ms, 0645ms total)
T32A8 001:038 JLINK_IsHalted()  returns FALSE (0000ms, 0644ms total)
T32A8 001:039 JLINK_IsHalted()  returns FALSE (0001ms, 0645ms total)
T32A8 001:041 JLINK_IsHalted()  returns FALSE (0000ms, 0644ms total)
T32A8 001:049 JLINK_IsHalted() -- CPU_ReadMem(2 bytes @ 0x20000000)  returns TRUE (0002ms, 0646ms total)
T32A8 001:051 JLINK_ReadReg(R15 (PC))  returns 0x20000000 (0000ms, 0644ms total)
T32A8 001:051 JLINK_ClrBPEx(BPHandle = 0x0000000B)  returns 0x00 (0000ms, 0644ms total)
T32A8 001:051 JLINK_ReadReg(R0)  returns 0x00000000 (0000ms, 0644ms total)
T32A8 001:052 JLINK_WriteMem(0x20000164, 0x0400 Bytes, ...) - Data: B8 68 08 38 88 B1 38 89 08 38 82 B2 A9 48 01 68 ... -- CPU_WriteMem(1024 bytes @ 0x20000164)  returns 0x400 (0004ms, 0648ms total)
T32A8 001:056 JLINK_WriteReg(R0, 0x08001C00)  returns 0x00 (0000ms, 0648ms total)
T32A8 001:056 JLINK_WriteReg(R1, 0x00000400)  returns 0x00 (0000ms, 0648ms total)
T32A8 001:056 JLINK_WriteReg(R2, 0x20000164)  returns 0x00 (0000ms, 0648ms total)
T32A8 001:056 JLINK_WriteReg(R3, 0x00000000)  returns 0x00 (0000ms, 0648ms total)
T32A8 001:056 JLINK_WriteReg(R4, 0x00000000)  returns 0x00 (0000ms, 0648ms total)
T32A8 001:056 JLINK_WriteReg(R5, 0x00000000)  returns 0x00 (0000ms, 0648ms total)
T32A8 001:056 JLINK_WriteReg(R6, 0x00000000)  returns 0x00 (0000ms, 0648ms total)
T32A8 001:056 JLINK_WriteReg(R7, 0x00000000)  returns 0x00 (0000ms, 0648ms total)
T32A8 001:056 JLINK_WriteReg(R8, 0x00000000)  returns 0x00 (0000ms, 0648ms total)
T32A8 001:056 JLINK_WriteReg(R9, 0x20000160)  returns 0x00 (0000ms, 0648ms total)
T32A8 001:056 JLINK_WriteReg(R10, 0x00000000)  returns 0x00 (0000ms, 0648ms total)
T32A8 001:056 JLINK_WriteReg(R11, 0x00000000)  returns 0x00 (0000ms, 0648ms total)
T32A8 001:056 JLINK_WriteReg(R12, 0x00000000)  returns 0x00 (0000ms, 0648ms total)
T32A8 001:056 JLINK_WriteReg(R13 (SP), 0x20000800)  returns 0x00 (0000ms, 0648ms total)
T32A8 001:056 JLINK_WriteReg(R14, 0x20000001)  returns 0x00 (0000ms, 0648ms total)
T32A8 001:056 JLINK_WriteReg(R15 (PC), 0x200000F4)  returns 0x00 (0000ms, 0648ms total)
T32A8 001:056 JLINK_WriteReg(XPSR, 0x01000000)  returns 0x00 (0000ms, 0648ms total)
T32A8 001:056 JLINK_WriteReg(MSP, 0x20000800)  returns 0x00 (0000ms, 0648ms total)
T32A8 001:056 JLINK_WriteReg(PSP, 0x20000800)  returns 0x00 (0000ms, 0648ms total)
T32A8 001:056 JLINK_WriteReg(CFBP, 0x00000000)  returns 0x00 (0000ms, 0648ms total)
T32A8 001:056 JLINK_SetBPEx(Addr = 0x20000000, Type = 0xFFFFFFF2)  returns 0x0000000C (0000ms, 0648ms total)
T32A8 001:056 JLINK_Go() -- CPU_ReadMem(4 bytes @ 0xE0001000) (0001ms, 0649ms total)
T32A8 001:057 JLINK_IsHalted()  returns FALSE (0000ms, 0649ms total)
T32A8 001:060 JLINK_IsHalted()  returns FALSE (0000ms, 0649ms total)
T32A8 001:062 JLINK_IsHalted()  returns FALSE (0000ms, 0649ms total)
T32A8 001:063 JLINK_IsHalted()  returns FALSE (0000ms, 0649ms total)
T32A8 001:065 JLINK_IsHalted()  returns FALSE (0000ms, 0649ms total)
T32A8 001:067 JLINK_IsHalted()  returns FALSE (0001ms, 0650ms total)
T32A8 001:070 JLINK_IsHalted()  returns FALSE (0000ms, 0649ms total)
T32A8 001:072 JLINK_IsHalted()  returns FALSE (0000ms, 0649ms total)
T32A8 001:074 JLINK_IsHalted()  returns FALSE (0001ms, 0650ms total)
T32A8 001:079 JLINK_IsHalted()  returns FALSE (0000ms, 0649ms total)
T32A8 001:080 JLINK_IsHalted()  returns FALSE (0000ms, 0649ms total)
T32A8 001:082 JLINK_IsHalted()  returns FALSE (0000ms, 0649ms total)
T32A8 001:084 JLINK_IsHalted()  returns FALSE (0000ms, 0649ms total)
T32A8 001:085 JLINK_IsHalted()  returns FALSE (0001ms, 0650ms total)
T32A8 001:087 JLINK_IsHalted()  returns FALSE (0000ms, 0649ms total)
T32A8 001:088 JLINK_IsHalted() -- CPU_ReadMem(2 bytes @ 0x20000000)  returns TRUE (0002ms, 0651ms total)
T32A8 001:090 JLINK_ReadReg(R15 (PC))  returns 0x20000000 (0000ms, 0649ms total)
T32A8 001:090 JLINK_ClrBPEx(BPHandle = 0x0000000C)  returns 0x00 (0000ms, 0649ms total)
T32A8 001:090 JLINK_ReadReg(R0)  returns 0x00000000 (0000ms, 0649ms total)
T32A8 001:090 JLINK_WriteMem(0x20000164, 0x0400 Bytes, ...) - Data: 2F 02 28 78 A0 F1 30 01 09 29 0A D8 09 EB 89 01 ... -- CPU_WriteMem(1024 bytes @ 0x20000164)  returns 0x400 (0005ms, 0654ms total)
T32A8 001:095 JLINK_WriteReg(R0, 0x08002000)  returns 0x00 (0000ms, 0654ms total)
T32A8 001:095 JLINK_WriteReg(R1, 0x00000400)  returns 0x00 (0000ms, 0654ms total)
T32A8 001:095 JLINK_WriteReg(R2, 0x20000164)  returns 0x00 (0000ms, 0654ms total)
T32A8 001:095 JLINK_WriteReg(R3, 0x00000000)  returns 0x00 (0000ms, 0654ms total)
T32A8 001:095 JLINK_WriteReg(R4, 0x00000000)  returns 0x00 (0000ms, 0654ms total)
T32A8 001:095 JLINK_WriteReg(R5, 0x00000000)  returns 0x00 (0000ms, 0654ms total)
T32A8 001:095 JLINK_WriteReg(R6, 0x00000000)  returns 0x00 (0000ms, 0654ms total)
T32A8 001:095 JLINK_WriteReg(R7, 0x00000000)  returns 0x00 (0000ms, 0654ms total)
T32A8 001:095 JLINK_WriteReg(R8, 0x00000000)  returns 0x00 (0000ms, 0654ms total)
T32A8 001:095 JLINK_WriteReg(R9, 0x20000160)  returns 0x00 (0000ms, 0654ms total)
T32A8 001:095 JLINK_WriteReg(R10, 0x00000000)  returns 0x00 (0000ms, 0654ms total)
T32A8 001:095 JLINK_WriteReg(R11, 0x00000000)  returns 0x00 (0000ms, 0654ms total)
T32A8 001:095 JLINK_WriteReg(R12, 0x00000000)  returns 0x00 (0000ms, 0654ms total)
T32A8 001:095 JLINK_WriteReg(R13 (SP), 0x20000800)  returns 0x00 (0000ms, 0654ms total)
T32A8 001:095 JLINK_WriteReg(R14, 0x20000001)  returns 0x00 (0000ms, 0654ms total)
T32A8 001:095 JLINK_WriteReg(R15 (PC), 0x200000F4)  returns 0x00 (0000ms, 0654ms total)
T32A8 001:095 JLINK_WriteReg(XPSR, 0x01000000)  returns 0x00 (0000ms, 0654ms total)
T32A8 001:095 JLINK_WriteReg(MSP, 0x20000800)  returns 0x00 (0000ms, 0654ms total)
T32A8 001:095 JLINK_WriteReg(PSP, 0x20000800)  returns 0x00 (0000ms, 0654ms total)
T32A8 001:095 JLINK_WriteReg(CFBP, 0x00000000)  returns 0x00 (0000ms, 0654ms total)
T32A8 001:095 JLINK_SetBPEx(Addr = 0x20000000, Type = 0xFFFFFFF2)  returns 0x0000000D (0000ms, 0654ms total)
T32A8 001:095 JLINK_Go() -- CPU_ReadMem(4 bytes @ 0xE0001000) (0001ms, 0655ms total)
T32A8 001:096 JLINK_IsHalted()  returns FALSE (0001ms, 0656ms total)
T32A8 001:100 JLINK_IsHalted()  returns FALSE (0000ms, 0655ms total)
T32A8 001:101 JLINK_IsHalted()  returns FALSE (0001ms, 0656ms total)
T32A8 001:103 JLINK_IsHalted()  returns FALSE (0000ms, 0655ms total)
T32A8 001:104 JLINK_IsHalted()  returns FALSE (0000ms, 0655ms total)
T32A8 001:107 JLINK_IsHalted()  returns FALSE (0000ms, 0655ms total)
T32A8 001:108 JLINK_IsHalted()  returns FALSE (0000ms, 0655ms total)
T32A8 001:110 JLINK_IsHalted()  returns FALSE (0000ms, 0655ms total)
T32A8 001:111 JLINK_IsHalted()  returns FALSE (0000ms, 0655ms total)
T32A8 001:112 JLINK_IsHalted()  returns FALSE (0001ms, 0656ms total)
T32A8 001:114 JLINK_IsHalted()  returns FALSE (0000ms, 0655ms total)
T32A8 001:116 JLINK_IsHalted()  returns FALSE (0001ms, 0656ms total)
T32A8 001:118 JLINK_IsHalted()  returns FALSE (0000ms, 0655ms total)
T32A8 001:119 JLINK_IsHalted()  returns FALSE (0000ms, 0655ms total)
T32A8 001:121 JLINK_IsHalted()  returns FALSE (0000ms, 0655ms total)
T32A8 001:126 JLINK_IsHalted()  returns FALSE (0000ms, 0655ms total)
